
T27F0 000:078 SEGGER J-Link V4.76d Log File (0000ms, 0077ms total)
T27F0 000:078 DLL Compiled: Sep 13 2013 16:35:06 (0000ms, 0077ms total)
T27F0 000:078 Logging started @ 2014-07-16 14:36 (0000ms, 0077ms total)
T27F0 000:078 JLINK_SetWarnOutHandler(...) (0000ms, 0077ms total)
T27F0 000:078 JLINK_OpenEx(...)
Firmware: J-Link ARM V8 compiled Jul 17 2013 11:24:15
Hardware: V8.00
S/N: 17935099
Feature(s): RDI,FlashDL,FlashBP,JFlash  returns O.K. (0016ms, 0093ms total)
T27F0 000:094 JLINK_SetErrorOutHandler(...) (0000ms, 0093ms total)
T27F0 000:094 JLINK_ExecCommand("ProjectFile = "F:\OLED\OLED驱动程序\整理程序\1.3寸模块资料V2.0\中景园电子1.3寸OLED显示屏_STM32系列_SPI_例程\中景园电子1.3寸OLED显示屏_STM32系列_SPI_例程\M096_STM32_SPI_V1.0\USER\JLinkSettings.ini"", ...)  returns 0x00 (0000ms, 0093ms total)
T27F0 000:096 JLINK_ExecCommand("Device = STM32F103ZE", ...)
                JLINK_AddMirrorAreaEx(Addr = 0x00000000, Size = 0x00000000) (0000ms, 0000ms total)
              Device "STM32F103ZE" selected (512 KB flash, 64 KB RAM).  returns 0x00 (0005ms, 0098ms total)
T27F0 000:101 JLINK_ExecCommand("DisableConnectionTimeout", ...)  returns 0x01 (0000ms, 0098ms total)
T27F0 000:101 JLINK_GetHardwareVersion()  returns 0x13880 (0000ms, 0098ms total)
T27F0 000:101 JLINK_GetDLLVersion()  returns 47604 (0000ms, 0098ms total)
T27F0 000:102 JLINK_GetFirmwareString(...) (0000ms, 0098ms total)
T27F0 000:137 JLINK_GetDLLVersion()  returns 47604 (0000ms, 0098ms total)
T27F0 000:137 JLINK_GetCompileDateTime() (0000ms, 0098ms total)
T27F0 000:152 JLINK_GetFirmwareString(...) (0001ms, 0099ms total)
T27F0 000:158 JLINK_GetHardwareVersion()  returns 0x13880 (0000ms, 0099ms total)
T27F0 000:166 JLINK_TIF_Select(JLINKARM_TIF_SWD)  returns 0x00 (0003ms, 0102ms total)
T27F0 000:169 JLINK_SetSpeed(10000) (0001ms, 0103ms total)
T27F0 000:170 JLINK_GetId() >0x108 TIF>Found SWD-DP with ID 0x1BA01477 >0x0D TIF> >0x28 TIF> >0x0D TIF> >0x28 TIF> >0x0D TIF> >0x21 TIF> >0x0D TIF> >0x28 TIF> >0x0D TIF> >0x28 TIF> >0x0D TIF> >0x28 TIF> >0x0D TIF> >0x21 TIF> >0x0D TIF> >0x21 TIF> >0x0D TIF> >0x28 TIF> >0x0D TIF> >0x21 TIF> >0x0D TIF> >0x21 TIF> >0x0D TIF> >0x28 TIF> >0x0D TIF> >0x28 TIF> >0x108 TIF>Found SWD-DP with ID 0x1BA01477 >0x0D TIF> >0x21 TIF> >0x0D TIF> >0x28 TIF> >0x0D TIF> >0x28 TIF> >0x0D TIF> >0x21 TIF> >0x0D TIF> >0x28 TIF>
 >0x0D TIF> >0x21 TIF> >0x0D TIF> >0x21 TIF> >0x0D TIF> >0x21 TIF> >0x0D TIF> >0x21 TIF> >0x0D TIF> >0x28 TIF> >0x0D TIF> >0x28 TIF> >0x0D TIF> >0x21 TIF> >0x0D TIF> >0x28 TIF> >0x0D TIF> >0x28 TIF> >0x0D TIF> >0x28 TIF> >0x0D TIF> >0x21 TIF> >0x0D TIF> >0x21 TIF> >0x0D TIF> >0x28 TIF> >0x0D TIF> >0x21 TIF> >0x0D TIF> >0x21 TIF>Found Cortex-M3 r1p1, Little endian. -- CPU_WriteMem(4 bytes @ 0xE0002000) -- CPU_ReadMem(4 bytes @ 0xE000EDF0) -- CPU_WriteMem(4 bytes @ 0xE000EDF0)
 -- CPU_ReadMem(4 bytes @ 0xE0002000)FPUnit: 6 code (BP) slots and 2 literal slots -- CPU_ReadMem(4 bytes @ 0xE000EDFC) -- CPU_WriteMem(4 bytes @ 0xE000EDFC) -- CPU_ReadMem(4 bytes @ 0xE0001000) -- CPU_WriteMem(4 bytes @ 0xE0001000) -- CPU_ReadMem(4 bytes @ 0xE00FF010)TPIU fitted. -- CPU_ReadMem(4 bytes @ 0xE00FF014)ETM fitted. -- CPU_ReadMem(4 bytes @ 0xE00FF018) >0x0D TIF> >0x21 TIF>  returns 0x1BA01477 (0078ms, 0181ms total)
T27F0 000:248 JLINK_GetDeviceFamily()  returns 3 (0000ms, 0181ms total)
T27F0 000:251 JLINK_ReadMem (0xE00FFFF0, 0x0010 Bytes, ...) -- CPU is running -- CPU_ReadMem(16 bytes @ 0xE00FFFF0) -- Data:  0D 00 00 00 10 00 00 00 05 00 00 00 B1 00 00 00  returns 0x00 (0000ms, 0181ms total)
T27F0 000:251 JLINK_ReadMem (0xE00FFFD0, 0x0020 Bytes, ...) -- CPU is running -- CPU_ReadMem(32 bytes @ 0xE00FFFD0) -- Data:  00 00 00 00 00 00 00 00 00 00 00 00 00 00 00 00 ...  returns 0x00 (0002ms, 0183ms total)
T27F0 000:253 JLINK_ReadMem (0xE00FF000, 0x0018 Bytes, ...) -- CPU is running -- CPU_ReadMem(24 bytes @ 0xE00FF000) -- Data:  03 F0 F0 FF 03 20 F0 FF 03 30 F0 FF 03 10 F0 FF ...  returns 0x00 (0001ms, 0184ms total)
T27F0 000:254 JLINK_ReadMemU32(0xE000ED00, 0x0001 Items, ...) -- CPU is running -- CPU_ReadMem(4 bytes @ 0xE000ED00) -- Data:  31 C2 1F 41  returns 0x01 (0001ms, 0185ms total)
T27F0 000:255 JLINK_SetResetType(JLINKARM_RESET_TYPE_NORMAL)  returns JLINKARM_RESET_TYPE_NORMAL (0000ms, 0185ms total)
T27F0 000:255 JLINK_Reset() -- CPU is running -- CPU_WriteMem(4 bytes @ 0xE000EDF0) -- CPU is running -- CPU_WriteMem(4 bytes @ 0xE000EDFC) >0x35 TIF> -- CPU is running -- CPU_WriteMem(4 bytes @ 0xE000ED0C) -- CPU is running -- CPU_ReadMem(4 bytes @ 0xE000EDF0) -- CPU is running -- CPU_ReadMem(4 bytes @ 0xE000EDF0) -- CPU is running -- CPU_WriteMem(4 bytes @ 0xE000EDF0) -- CPU is running -- CPU_WriteMem(4 bytes @ 0xE000EDFC) -- CPU is running -- CPU_ReadMem(4 bytes @ 0xE000EDF0)
 -- CPU_WriteMem(4 bytes @ 0xE0002000) (0018ms, 0203ms total)
T27F0 000:273 JLINK_Halt()  returns 0x00 (0000ms, 0203ms total)
T27F0 000:273 JLINK_IsHalted()  returns TRUE (0000ms, 0203ms total)
T27F0 000:273 JLINK_ReadMemU32(0xE000EDF0, 0x0001 Items, ...) -- CPU_ReadMem(4 bytes @ 0xE000EDF0) -- Data:  03 00 03 00  returns 0x01 (0001ms, 0204ms total)
T27F0 000:274 JLINK_WriteU32(0xE000EDF0, 0xA05F0003) -- CPU_WriteMem(4 bytes @ 0xE000EDF0)  returns 0x00 (0001ms, 0205ms total)
T27F0 000:275 JLINK_WriteU32(0xE000EDFC, 0x01000000) -- CPU_WriteMem(4 bytes @ 0xE000EDFC)  returns 0x00 (0001ms, 0206ms total)
T27F0 000:282 JLINK_GetHWStatus(...)  returns 0x00 (0001ms, 0207ms total)
T27F0 000:291 JLINK_GetNumBPUnits(Type = 0xFFFFFF00)  returns 0x06 (0000ms, 0207ms total)
T27F0 000:291 JLINK_GetNumBPUnits(Type = 0xF0)  returns 0x2000 (0000ms, 0207ms total)
T27F0 000:291 JLINK_GetNumWPUnits()  returns 0x04 (0000ms, 0207ms total)
T27F0 000:296 JLINK_GetSpeed()  returns 0xFA0 (0000ms, 0207ms total)
T27F0 000:303 JLINK_ReadMemU32(0xE000E004, 0x0001 Items, ...) -- CPU_ReadMem(4 bytes @ 0xE000E004) -- Data:  01 00 00 00  returns 0x01 (0001ms, 0208ms total)
T27F0 000:304 JLINK_ReadMemU32(0xE000E004, 0x0001 Items, ...) -- CPU_ReadMem(4 bytes @ 0xE000E004) -- Data:  01 00 00 00  returns 0x01 (0001ms, 0209ms total)
T27F0 000:305 JLINK_WriteMem(0xE0001000, 0x001C Bytes, ...) -- Data:  01 00 00 00 00 00 00 00 00 00 00 00 00 00 00 00 ... -- CPU_WriteMem(28 bytes @ 0xE0001000)  returns 0x1C (0001ms, 0210ms total)
T27F0 000:306 JLINK_ReadMem (0xE0001000, 0x001C Bytes, ...) -- CPU_ReadMem(28 bytes @ 0xE0001000) -- Data:  01 00 00 40 00 00 00 00 00 00 00 00 00 00 00 00 ...  returns 0x00 (0001ms, 0211ms total)
T27F0 000:307 JLINK_Halt()  returns 0x00 (0000ms, 0211ms total)
T27F0 000:307 JLINK_IsHalted()  returns TRUE (0000ms, 0211ms total)
T27F0 000:309 JLINK_WriteMem(0x20000000, 0x0164 Bytes, ...) -- Data:  00 BE 0A E0 0D 78 2D 06 68 40 08 24 40 00 00 D3 ... -- CPU_WriteMem(356 bytes @ 0x20000000)  returns 0x164 (0003ms, 0214ms total)
T27F0 000:312 JLINK_WriteReg(R0, 0x08000000)  returns 0x00 (0000ms, 0214ms total)
T27F0 000:312 JLINK_WriteReg(R1, 0x007A1200)  returns 0x00 (0000ms, 0214ms total)
T27F0 000:312 JLINK_WriteReg(R2, 0x00000001)  returns 0x00 (0000ms, 0214ms total)
T27F0 000:312 JLINK_WriteReg(R3, 0x00000000)  returns 0x00 (0000ms, 0214ms total)
T27F0 000:312 JLINK_WriteReg(R4, 0x00000000)  returns 0x00 (0000ms, 0214ms total)
T27F0 000:312 JLINK_WriteReg(R5, 0x00000000)  returns 0x00 (0000ms, 0214ms total)
T27F0 000:312 JLINK_WriteReg(R6, 0x00000000)  returns 0x00 (0000ms, 0214ms total)
T27F0 000:312 JLINK_WriteReg(R7, 0x00000000)  returns 0x00 (0000ms, 0214ms total)
T27F0 000:312 JLINK_WriteReg(R8, 0x00000000)  returns 0x00 (0000ms, 0214ms total)
T27F0 000:312 JLINK_WriteReg(R9, 0x20000160)  returns 0x00 (0000ms, 0214ms total)
T27F0 000:312 JLINK_WriteReg(R10, 0x00000000)  returns 0x00 (0000ms, 0214ms total)
T27F0 000:312 JLINK_WriteReg(R11, 0x00000000)  returns 0x00 (0000ms, 0214ms total)
T27F0 000:312 JLINK_WriteReg(R12, 0x00000000)  returns 0x00 (0000ms, 0214ms total)
T27F0 000:312 JLINK_WriteReg(R13 (SP), 0x20000800)  returns 0x00 (0000ms, 0214ms total)
T27F0 000:312 JLINK_WriteReg(R14, 0x20000001)  returns 0x00 (0000ms, 0214ms total)
T27F0 000:312 JLINK_WriteReg(R15 (PC), 0x20000038)  returns 0x00 (0000ms, 0214ms total)
T27F0 000:312 JLINK_WriteReg(XPSR, 0x01000000)  returns 0x00 (0000ms, 0214ms total)
T27F0 000:312 JLINK_WriteReg(MSP, 0x20000800)  returns 0x00 (0000ms, 0214ms total)
T27F0 000:312 JLINK_WriteReg(PSP, 0x20000800)  returns 0x00 (0000ms, 0214ms total)
T27F0 000:312 JLINK_WriteReg(CFBP, 0x00000000)  returns 0x00 (0000ms, 0214ms total)
T27F0 000:312 JLINK_SetBPEx(Addr = 0x20000000, Type = 0xFFFFFFF2) -- CPU_ReadMem(2 bytes @ 0x20000000)  returns 0x00000001 (0001ms, 0215ms total)
T27F0 000:313 JLINK_Go() -- CPU_WriteMem(2 bytes @ 0x20000000) -- CPU_WriteMem(4 bytes @ 0xE0002008) -- CPU_WriteMem(4 bytes @ 0xE000200C) -- CPU_WriteMem(4 bytes @ 0xE0002010) -- CPU_WriteMem(4 bytes @ 0xE0002014) -- CPU_WriteMem(4 bytes @ 0xE0002018) -- CPU_WriteMem(4 bytes @ 0xE000201C) (0008ms, 0223ms total)
T27F0 000:321 JLINK_IsHalted() -- CPU_ReadMem(2 bytes @ 0x20000000)  returns TRUE (0004ms, 0227ms total)
T27F0 000:325 JLINK_ReadReg(R15 (PC))  returns 0x20000000 (0000ms, 0223ms total)
T27F0 000:325 JLINK_ClrBPEx(BPHandle = 0x00000001)  returns 0x00 (0000ms, 0223ms total)
T27F0 000:325 JLINK_ReadReg(R0)  returns 0x00000000 (0000ms, 0223ms total)
T27F0 000:325 JLINK_WriteReg(R0, 0x08000000)  returns 0x00 (0000ms, 0223ms total)
T27F0 000:325 JLINK_WriteReg(R1, 0x00000800)  returns 0x00 (0000ms, 0223ms total)
T27F0 000:325 JLINK_WriteReg(R2, 0x000000FF)  returns 0x00 (0000ms, 0223ms total)
T27F0 000:325 JLINK_WriteReg(R3, 0x00000000)  returns 0x00 (0000ms, 0223ms total)
T27F0 000:325 JLINK_WriteReg(R4, 0x00000000)  returns 0x00 (0000ms, 0223ms total)
T27F0 000:325 JLINK_WriteReg(R5, 0x00000000)  returns 0x00 (0000ms, 0223ms total)
T27F0 000:325 JLINK_WriteReg(R6, 0x00000000)  returns 0x00 (0000ms, 0223ms total)
T27F0 000:325 JLINK_WriteReg(R7, 0x00000000)  returns 0x00 (0000ms, 0223ms total)
T27F0 000:325 JLINK_WriteReg(R8, 0x00000000)  returns 0x00 (0000ms, 0223ms total)
T27F0 000:325 JLINK_WriteReg(R9, 0x20000160)  returns 0x00 (0000ms, 0223ms total)
T27F0 000:325 JLINK_WriteReg(R10, 0x00000000)  returns 0x00 (0000ms, 0223ms total)
T27F0 000:325 JLINK_WriteReg(R11, 0x00000000)  returns 0x00 (0000ms, 0223ms total)
T27F0 000:325 JLINK_WriteReg(R12, 0x00000000)  returns 0x00 (0000ms, 0223ms total)
T27F0 000:325 JLINK_WriteReg(R13 (SP), 0x20000800)  returns 0x00 (0000ms, 0223ms total)
T27F0 000:325 JLINK_WriteReg(R14, 0x20000001)  returns 0x00 (0000ms, 0223ms total)
T27F0 000:325 JLINK_WriteReg(R15 (PC), 0x20000020)  returns 0x00 (0000ms, 0223ms total)
T27F0 000:325 JLINK_WriteReg(XPSR, 0x01000000)  returns 0x00 (0000ms, 0223ms total)
T27F0 000:325 JLINK_WriteReg(MSP, 0x20000800)  returns 0x00 (0000ms, 0223ms total)
T27F0 000:325 JLINK_WriteReg(PSP, 0x20000800)  returns 0x00 (0000ms, 0223ms total)
T27F0 000:325 JLINK_WriteReg(CFBP, 0x00000000)  returns 0x00 (0000ms, 0223ms total)
T27F0 000:325 JLINK_SetBPEx(Addr = 0x20000000, Type = 0xFFFFFFF2)  returns 0x00000002 (0000ms, 0223ms total)
T27F0 000:325 JLINK_Go() (0002ms, 0225ms total)
T27F0 000:327 JLINK_IsHalted() -- CPU_ReadMem(2 bytes @ 0x20000000)  returns TRUE (0004ms, 0229ms total)
T27F0 000:331 JLINK_ReadReg(R15 (PC))  returns 0x20000000 (0000ms, 0225ms total)
T27F0 000:331 JLINK_ClrBPEx(BPHandle = 0x00000002)  returns 0x00 (0000ms, 0225ms total)
T27F0 000:331 JLINK_ReadReg(R0)  returns 0x00000001 (0000ms, 0225ms total)
T27F0 000:331 JLINK_WriteReg(R0, 0x08000000)  returns 0x00 (0000ms, 0225ms total)
T27F0 000:331 JLINK_WriteReg(R1, 0x00000800)  returns 0x00 (0000ms, 0225ms total)
T27F0 000:331 JLINK_WriteReg(R2, 0x000000FF)  returns 0x00 (0000ms, 0225ms total)
T27F0 000:331 JLINK_WriteReg(R3, 0x00000000)  returns 0x00 (0000ms, 0225ms total)
T27F0 000:331 JLINK_WriteReg(R4, 0x00000000)  returns 0x00 (0000ms, 0225ms total)
T27F0 000:331 JLINK_WriteReg(R5, 0x00000000)  returns 0x00 (0000ms, 0225ms total)
T27F0 000:331 JLINK_WriteReg(R6, 0x00000000)  returns 0x00 (0000ms, 0225ms total)
T27F0 000:331 JLINK_WriteReg(R7, 0x00000000)  returns 0x00 (0000ms, 0225ms total)
T27F0 000:331 JLINK_WriteReg(R8, 0x00000000)  returns 0x00 (0000ms, 0225ms total)
T27F0 000:331 JLINK_WriteReg(R9, 0x20000160)  returns 0x00 (0000ms, 0225ms total)
T27F0 000:331 JLINK_WriteReg(R10, 0x00000000)  returns 0x00 (0000ms, 0225ms total)
T27F0 000:331 JLINK_WriteReg(R11, 0x00000000)  returns 0x00 (0000ms, 0225ms total)
T27F0 000:331 JLINK_WriteReg(R12, 0x00000000)  returns 0x00 (0000ms, 0225ms total)
T27F0 000:331 JLINK_WriteReg(R13 (SP), 0x20000800)  returns 0x00 (0000ms, 0225ms total)
T27F0 000:331 JLINK_WriteReg(R14, 0x20000001)  returns 0x00 (0000ms, 0225ms total)
T27F0 000:331 JLINK_WriteReg(R15 (PC), 0x200000B6)  returns 0x00 (0000ms, 0225ms total)
T27F0 000:331 JLINK_WriteReg(XPSR, 0x01000000)  returns 0x00 (0000ms, 0225ms total)
T27F0 000:331 JLINK_WriteReg(MSP, 0x20000800)  returns 0x00 (0000ms, 0225ms total)
T27F0 000:331 JLINK_WriteReg(PSP, 0x20000800)  returns 0x00 (0000ms, 0225ms total)
T27F0 000:331 JLINK_WriteReg(CFBP, 0x00000000)  returns 0x00 (0000ms, 0225ms total)
T27F0 000:331 JLINK_SetBPEx(Addr = 0x20000000, Type = 0xFFFFFFF2)  returns 0x00000003 (0000ms, 0225ms total)
T27F0 000:331 JLINK_Go() (0002ms, 0227ms total)
T27F0 000:333 JLINK_IsHalted()  returns FALSE (0001ms, 0228ms total)
T27F0 000:391 JLINK_IsHalted() -- CPU_ReadMem(2 bytes @ 0x20000000)  returns TRUE (0003ms, 0230ms total)
T27F0 000:394 JLINK_ReadReg(R15 (PC))  returns 0x20000000 (0000ms, 0227ms total)
T27F0 000:394 JLINK_ClrBPEx(BPHandle = 0x00000003)  returns 0x00 (0000ms, 0227ms total)
T27F0 000:394 JLINK_ReadReg(R0)  returns 0x00000000 (0000ms, 0227ms total)
T27F0 000:395 JLINK_WriteReg(R0, 0x08000800)  returns 0x00 (0000ms, 0227ms total)
T27F0 000:395 JLINK_WriteReg(R1, 0x00000800)  returns 0x00 (0000ms, 0227ms total)
T27F0 000:395 JLINK_WriteReg(R2, 0x000000FF)  returns 0x00 (0000ms, 0227ms total)
T27F0 000:395 JLINK_WriteReg(R3, 0x00000000)  returns 0x00 (0000ms, 0227ms total)
T27F0 000:395 JLINK_WriteReg(R4, 0x00000000)  returns 0x00 (0000ms, 0227ms total)
T27F0 000:395 JLINK_WriteReg(R5, 0x00000000)  returns 0x00 (0000ms, 0227ms total)
T27F0 000:395 JLINK_WriteReg(R6, 0x00000000)  returns 0x00 (0000ms, 0227ms total)
T27F0 000:395 JLINK_WriteReg(R7, 0x00000000)  returns 0x00 (0000ms, 0227ms total)
T27F0 000:395 JLINK_WriteReg(R8, 0x00000000)  returns 0x00 (0000ms, 0227ms total)
T27F0 000:395 JLINK_WriteReg(R9, 0x20000160)  returns 0x00 (0000ms, 0227ms total)
T27F0 000:395 JLINK_WriteReg(R10, 0x00000000)  returns 0x00 (0000ms, 0227ms total)
T27F0 000:395 JLINK_WriteReg(R11, 0x00000000)  returns 0x00 (0000ms, 0227ms total)
T27F0 000:395 JLINK_WriteReg(R12, 0x00000000)  returns 0x00 (0000ms, 0227ms total)
T27F0 000:395 JLINK_WriteReg(R13 (SP), 0x20000800)  returns 0x00 (0000ms, 0227ms total)
T27F0 000:395 JLINK_WriteReg(R14, 0x20000001)  returns 0x00 (0000ms, 0227ms total)
T27F0 000:395 JLINK_WriteReg(R15 (PC), 0x20000020)  returns 0x00 (0000ms, 0227ms total)
T27F0 000:395 JLINK_WriteReg(XPSR, 0x01000000)  returns 0x00 (0000ms, 0227ms total)
T27F0 000:395 JLINK_WriteReg(MSP, 0x20000800)  returns 0x00 (0000ms, 0227ms total)
T27F0 000:395 JLINK_WriteReg(PSP, 0x20000800)  returns 0x00 (0000ms, 0227ms total)
T27F0 000:395 JLINK_WriteReg(CFBP, 0x00000000)  returns 0x00 (0000ms, 0227ms total)
T27F0 000:395 JLINK_SetBPEx(Addr = 0x20000000, Type = 0xFFFFFFF2)  returns 0x00000004 (0000ms, 0227ms total)
T27F0 000:395 JLINK_Go() (0002ms, 0229ms total)
T27F0 000:397 JLINK_IsHalted() -- CPU_ReadMem(2 bytes @ 0x20000000)  returns TRUE (0004ms, 0233ms total)
T27F0 000:401 JLINK_ReadReg(R15 (PC))  returns 0x20000000 (0000ms, 0229ms total)
T27F0 000:401 JLINK_ClrBPEx(BPHandle = 0x00000004)  returns 0x00 (0000ms, 0229ms total)
T27F0 000:401 JLINK_ReadReg(R0)  returns 0x00000001 (0000ms, 0229ms total)
T27F0 000:401 JLINK_WriteReg(R0, 0x08000800)  returns 0x00 (0000ms, 0229ms total)
T27F0 000:401 JLINK_WriteReg(R1, 0x00000800)  returns 0x00 (0000ms, 0229ms total)
T27F0 000:401 JLINK_WriteReg(R2, 0x000000FF)  returns 0x00 (0000ms, 0229ms total)
T27F0 000:401 JLINK_WriteReg(R3, 0x00000000)  returns 0x00 (0000ms, 0229ms total)
T27F0 000:402 JLINK_WriteReg(R4, 0x00000000)  returns 0x00 (0000ms, 0229ms total)
T27F0 000:402 JLINK_WriteReg(R5, 0x00000000)  returns 0x00 (0000ms, 0229ms total)
T27F0 000:402 JLINK_WriteReg(R6, 0x00000000)  returns 0x00 (0000ms, 0229ms total)
T27F0 000:402 JLINK_WriteReg(R7, 0x00000000)  returns 0x00 (0000ms, 0229ms total)
T27F0 000:402 JLINK_WriteReg(R8, 0x00000000)  returns 0x00 (0000ms, 0229ms total)
T27F0 000:402 JLINK_WriteReg(R9, 0x20000160)  returns 0x00 (0000ms, 0229ms total)
T27F0 000:402 JLINK_WriteReg(R10, 0x00000000)  returns 0x00 (0000ms, 0229ms total)
T27F0 000:402 JLINK_WriteReg(R11, 0x00000000)  returns 0x00 (0000ms, 0229ms total)
T27F0 000:402 JLINK_WriteReg(R12, 0x00000000)  returns 0x00 (0000ms, 0229ms total)
T27F0 000:402 JLINK_WriteReg(R13 (SP), 0x20000800)  returns 0x00 (0000ms, 0229ms total)
T27F0 000:402 JLINK_WriteReg(R14, 0x20000001)  returns 0x00 (0000ms, 0229ms total)
T27F0 000:402 JLINK_WriteReg(R15 (PC), 0x200000B6)  returns 0x00 (0000ms, 0229ms total)
T27F0 000:402 JLINK_WriteReg(XPSR, 0x01000000)  returns 0x00 (0000ms, 0229ms total)
T27F0 000:402 JLINK_WriteReg(MSP, 0x20000800)  returns 0x00 (0000ms, 0229ms total)
T27F0 000:402 JLINK_WriteReg(PSP, 0x20000800)  returns 0x00 (0000ms, 0229ms total)
T27F0 000:402 JLINK_WriteReg(CFBP, 0x00000000)  returns 0x00 (0000ms, 0229ms total)
T27F0 000:402 JLINK_SetBPEx(Addr = 0x20000000, Type = 0xFFFFFFF2)  returns 0x00000005 (0000ms, 0229ms total)
T27F0 000:402 JLINK_Go() (0002ms, 0231ms total)
T27F0 000:404 JLINK_IsHalted()  returns FALSE (0000ms, 0231ms total)
T27F0 000:405 JLINK_IsHalted()  returns FALSE (0000ms, 0231ms total)
T27F0 000:406 JLINK_IsHalted()  returns FALSE (0000ms, 0231ms total)
T27F0 000:407 JLINK_IsHalted()  returns FALSE (0000ms, 0231ms total)
T27F0 000:408 JLINK_IsHalted()  returns FALSE (0000ms, 0231ms total)
T27F0 000:409 JLINK_IsHalted()  returns FALSE (0000ms, 0231ms total)
T27F0 000:417 JLINK_IsHalted()  returns FALSE (0000ms, 0231ms total)
T27F0 000:418 JLINK_IsHalted()  returns FALSE (0000ms, 0231ms total)
T27F0 000:419 JLINK_IsHalted()  returns FALSE (0000ms, 0231ms total)
T27F0 000:420 JLINK_IsHalted()  returns FALSE (0000ms, 0231ms total)
T27F0 000:421 JLINK_IsHalted()  returns FALSE (0000ms, 0231ms total)
T27F0 000:422 JLINK_IsHalted()  returns FALSE (0000ms, 0231ms total)
T27F0 000:423 JLINK_IsHalted()  returns FALSE (0000ms, 0231ms total)
T27F0 000:424 JLINK_IsHalted()  returns FALSE (0000ms, 0231ms total)
T27F0 000:428 JLINK_IsHalted() -- CPU_ReadMem(2 bytes @ 0x20000000)  returns TRUE (0003ms, 0234ms total)
T27F0 000:431 JLINK_ReadReg(R15 (PC))  returns 0x20000000 (0000ms, 0231ms total)
T27F0 000:431 JLINK_ClrBPEx(BPHandle = 0x00000005)  returns 0x00 (0000ms, 0231ms total)
T27F0 000:431 JLINK_ReadReg(R0)  returns 0x00000000 (0000ms, 0231ms total)
T27F0 000:431 JLINK_WriteReg(R0, 0x08001000)  returns 0x00 (0000ms, 0231ms total)
T27F0 000:431 JLINK_WriteReg(R1, 0x00000800)  returns 0x00 (0000ms, 0231ms total)
T27F0 000:432 JLINK_WriteReg(R2, 0x000000FF)  returns 0x00 (0000ms, 0232ms total)
T27F0 000:432 JLINK_WriteReg(R3, 0x00000000)  returns 0x00 (0000ms, 0232ms total)
T27F0 000:432 JLINK_WriteReg(R4, 0x00000000)  returns 0x00 (0000ms, 0232ms total)
T27F0 000:432 JLINK_WriteReg(R5, 0x00000000)  returns 0x00 (0000ms, 0232ms total)
T27F0 000:432 JLINK_WriteReg(R6, 0x00000000)  returns 0x00 (0000ms, 0232ms total)
T27F0 000:432 JLINK_WriteReg(R7, 0x00000000)  returns 0x00 (0000ms, 0232ms total)
T27F0 000:432 JLINK_WriteReg(R8, 0x00000000)  returns 0x00 (0000ms, 0232ms total)
T27F0 000:432 JLINK_WriteReg(R9, 0x20000160)  returns 0x00 (0000ms, 0232ms total)
T27F0 000:432 JLINK_WriteReg(R10, 0x00000000)  returns 0x00 (0000ms, 0232ms total)
T27F0 000:432 JLINK_WriteReg(R11, 0x00000000)  returns 0x00 (0000ms, 0232ms total)
T27F0 000:432 JLINK_WriteReg(R12, 0x00000000)  returns 0x00 (0000ms, 0232ms total)
T27F0 000:432 JLINK_WriteReg(R13 (SP), 0x20000800)  returns 0x00 (0000ms, 0232ms total)
T27F0 000:432 JLINK_WriteReg(R14, 0x20000001)  returns 0x00 (0000ms, 0232ms total)
T27F0 000:432 JLINK_WriteReg(R15 (PC), 0x20000020)  returns 0x00 (0000ms, 0232ms total)
T27F0 000:432 JLINK_WriteReg(XPSR, 0x01000000)  returns 0x00 (0000ms, 0232ms total)
T27F0 000:432 JLINK_WriteReg(MSP, 0x20000800)  returns 0x00 (0000ms, 0232ms total)
T27F0 000:432 JLINK_WriteReg(PSP, 0x20000800)  returns 0x00 (0000ms, 0232ms total)
T27F0 000:432 JLINK_WriteReg(CFBP, 0x00000000)  returns 0x00 (0000ms, 0232ms total)
T27F0 000:432 JLINK_SetBPEx(Addr = 0x20000000, Type = 0xFFFFFFF2)  returns 0x00000006 (0000ms, 0232ms total)
T27F0 000:432 JLINK_Go() (0002ms, 0234ms total)
T27F0 000:434 JLINK_IsHalted() -- CPU_ReadMem(2 bytes @ 0x20000000)  returns TRUE (0004ms, 0238ms total)
T27F0 000:438 JLINK_ReadReg(R15 (PC))  returns 0x20000000 (0000ms, 0234ms total)
T27F0 000:438 JLINK_ClrBPEx(BPHandle = 0x00000006)  returns 0x00 (0000ms, 0234ms total)
T27F0 000:438 JLINK_ReadReg(R0)  returns 0x00000001 (0000ms, 0234ms total)
T27F0 000:438 JLINK_WriteReg(R0, 0x08001000)  returns 0x00 (0000ms, 0234ms total)
T27F0 000:438 JLINK_WriteReg(R1, 0x00000800)  returns 0x00 (0000ms, 0234ms total)
T27F0 000:438 JLINK_WriteReg(R2, 0x000000FF)  returns 0x00 (0000ms, 0234ms total)
T27F0 000:438 JLINK_WriteReg(R3, 0x00000000)  returns 0x00 (0000ms, 0234ms total)
T27F0 000:438 JLINK_WriteReg(R4, 0x00000000)  returns 0x00 (0000ms, 0234ms total)
T27F0 000:438 JLINK_WriteReg(R5, 0x00000000)  returns 0x00 (0000ms, 0234ms total)
T27F0 000:438 JLINK_WriteReg(R6, 0x00000000)  returns 0x00 (0000ms, 0234ms total)
T27F0 000:438 JLINK_WriteReg(R7, 0x00000000)  returns 0x00 (0000ms, 0234ms total)
T27F0 000:438 JLINK_WriteReg(R8, 0x00000000)  returns 0x00 (0000ms, 0234ms total)
T27F0 000:438 JLINK_WriteReg(R9, 0x20000160)  returns 0x00 (0000ms, 0234ms total)
T27F0 000:438 JLINK_WriteReg(R10, 0x00000000)  returns 0x00 (0000ms, 0234ms total)
T27F0 000:438 JLINK_WriteReg(R11, 0x00000000)  returns 0x00 (0000ms, 0234ms total)
T27F0 000:438 JLINK_WriteReg(R12, 0x00000000)  returns 0x00 (0000ms, 0234ms total)
T27F0 000:438 JLINK_WriteReg(R13 (SP), 0x20000800)  returns 0x00 (0000ms, 0234ms total)
T27F0 000:438 JLINK_WriteReg(R14, 0x20000001)  returns 0x00 (0000ms, 0234ms total)
T27F0 000:438 JLINK_WriteReg(R15 (PC), 0x200000B6)  returns 0x00 (0000ms, 0234ms total)
T27F0 000:438 JLINK_WriteReg(XPSR, 0x01000000)  returns 0x00 (0000ms, 0234ms total)
T27F0 000:438 JLINK_WriteReg(MSP, 0x20000800)  returns 0x00 (0000ms, 0234ms total)
T27F0 000:438 JLINK_WriteReg(PSP, 0x20000800)  returns 0x00 (0000ms, 0234ms total)
T27F0 000:438 JLINK_WriteReg(CFBP, 0x00000000)  returns 0x00 (0000ms, 0234ms total)
T27F0 000:438 JLINK_SetBPEx(Addr = 0x20000000, Type = 0xFFFFFFF2)  returns 0x00000007 (0000ms, 0234ms total)
T27F0 000:438 JLINK_Go() (0002ms, 0236ms total)
T27F0 000:440 JLINK_IsHalted()  returns FALSE (0001ms, 0237ms total)
T27F0 000:443 JLINK_IsHalted()  returns FALSE (0000ms, 0236ms total)
T27F0 000:444 JLINK_IsHalted()  returns FALSE (0000ms, 0236ms total)
T27F0 000:445 JLINK_IsHalted()  returns FALSE (0000ms, 0236ms total)
T27F0 000:446 JLINK_IsHalted()  returns FALSE (0000ms, 0236ms total)
T27F0 000:447 JLINK_IsHalted()  returns FALSE (0000ms, 0236ms total)
T27F0 000:448 JLINK_IsHalted()  returns FALSE (0000ms, 0236ms total)
T27F0 000:449 JLINK_IsHalted()  returns FALSE (0000ms, 0236ms total)
T27F0 000:450 JLINK_IsHalted()  returns FALSE (0000ms, 0236ms total)
T27F0 000:451 JLINK_IsHalted()  returns FALSE (0000ms, 0236ms total)
T27F0 000:452 JLINK_IsHalted()  returns FALSE (0000ms, 0236ms total)
T27F0 000:453 JLINK_IsHalted()  returns FALSE (0000ms, 0236ms total)
T27F0 000:454 JLINK_IsHalted()  returns FALSE (0000ms, 0236ms total)
T27F0 000:455 JLINK_IsHalted()  returns FALSE (0000ms, 0236ms total)
T27F0 000:459 JLINK_IsHalted()  returns FALSE (0000ms, 0236ms total)
T27F0 000:460 JLINK_IsHalted()  returns FALSE (0000ms, 0236ms total)
T27F0 000:461 JLINK_IsHalted()  returns FALSE (0000ms, 0236ms total)
T27F0 000:462 JLINK_IsHalted() -- CPU_ReadMem(2 bytes @ 0x20000000)  returns TRUE (0003ms, 0239ms total)
T27F0 000:465 JLINK_ReadReg(R15 (PC))  returns 0x20000000 (0000ms, 0236ms total)
T27F0 000:465 JLINK_ClrBPEx(BPHandle = 0x00000007)  returns 0x00 (0000ms, 0236ms total)
T27F0 000:465 JLINK_ReadReg(R0)  returns 0x00000000 (0001ms, 0237ms total)
T27F0 000:466 JLINK_WriteReg(R0, 0x08001800)  returns 0x00 (0000ms, 0237ms total)
T27F0 000:466 JLINK_WriteReg(R1, 0x00000800)  returns 0x00 (0000ms, 0237ms total)
T27F0 000:466 JLINK_WriteReg(R2, 0x000000FF)  returns 0x00 (0000ms, 0237ms total)
T27F0 000:466 JLINK_WriteReg(R3, 0x00000000)  returns 0x00 (0000ms, 0237ms total)
T27F0 000:466 JLINK_WriteReg(R4, 0x00000000)  returns 0x00 (0000ms, 0237ms total)
T27F0 000:466 JLINK_WriteReg(R5, 0x00000000)  returns 0x00 (0000ms, 0237ms total)
T27F0 000:466 JLINK_WriteReg(R6, 0x00000000)  returns 0x00 (0000ms, 0237ms total)
T27F0 000:466 JLINK_WriteReg(R7, 0x00000000)  returns 0x00 (0000ms, 0237ms total)
T27F0 000:466 JLINK_WriteReg(R8, 0x00000000)  returns 0x00 (0000ms, 0237ms total)
T27F0 000:466 JLINK_WriteReg(R9, 0x20000160)  returns 0x00 (0000ms, 0237ms total)
T27F0 000:466 JLINK_WriteReg(R10, 0x00000000)  returns 0x00 (0000ms, 0237ms total)
T27F0 000:466 JLINK_WriteReg(R11, 0x00000000)  returns 0x00 (0000ms, 0237ms total)
T27F0 000:466 JLINK_WriteReg(R12, 0x00000000)  returns 0x00 (0000ms, 0237ms total)
T27F0 000:466 JLINK_WriteReg(R13 (SP), 0x20000800)  returns 0x00 (0000ms, 0237ms total)
T27F0 000:466 JLINK_WriteReg(R14, 0x20000001)  returns 0x00 (0000ms, 0237ms total)
T27F0 000:466 JLINK_WriteReg(R15 (PC), 0x20000020)  returns 0x00 (0000ms, 0237ms total)
T27F0 000:466 JLINK_WriteReg(XPSR, 0x01000000)  returns 0x00 (0000ms, 0237ms total)
T27F0 000:466 JLINK_WriteReg(MSP, 0x20000800)  returns 0x00 (0000ms, 0237ms total)
T27F0 000:466 JLINK_WriteReg(PSP, 0x20000800)  returns 0x00 (0000ms, 0237ms total)
T27F0 000:466 JLINK_WriteReg(CFBP, 0x00000000)  returns 0x00 (0001ms, 0238ms total)
T27F0 000:467 JLINK_SetBPEx(Addr = 0x20000000, Type = 0xFFFFFFF2)  returns 0x00000008 (0000ms, 0238ms total)
T27F0 000:467 JLINK_Go() (0002ms, 0240ms total)
T27F0 000:469 JLINK_IsHalted() -- CPU_ReadMem(2 bytes @ 0x20000000)  returns TRUE (0004ms, 0244ms total)
T27F0 000:473 JLINK_ReadReg(R15 (PC))  returns 0x20000000 (0000ms, 0240ms total)
T27F0 000:473 JLINK_ClrBPEx(BPHandle = 0x00000008)  returns 0x00 (0000ms, 0240ms total)
T27F0 000:473 JLINK_ReadReg(R0)  returns 0x00000001 (0000ms, 0240ms total)
T27F0 000:473 JLINK_WriteReg(R0, 0x08001800)  returns 0x00 (0000ms, 0240ms total)
T27F0 000:473 JLINK_WriteReg(R1, 0x00000800)  returns 0x00 (0000ms, 0240ms total)
T27F0 000:473 JLINK_WriteReg(R2, 0x000000FF)  returns 0x00 (0000ms, 0240ms total)
T27F0 000:473 JLINK_WriteReg(R3, 0x00000000)  returns 0x00 (0000ms, 0240ms total)
T27F0 000:473 JLINK_WriteReg(R4, 0x00000000)  returns 0x00 (0000ms, 0240ms total)
T27F0 000:473 JLINK_WriteReg(R5, 0x00000000)  returns 0x00 (0000ms, 0240ms total)
T27F0 000:473 JLINK_WriteReg(R6, 0x00000000)  returns 0x00 (0000ms, 0240ms total)
T27F0 000:473 JLINK_WriteReg(R7, 0x00000000)  returns 0x00 (0000ms, 0240ms total)
T27F0 000:473 JLINK_WriteReg(R8, 0x00000000)  returns 0x00 (0000ms, 0240ms total)
T27F0 000:473 JLINK_WriteReg(R9, 0x20000160)  returns 0x00 (0000ms, 0240ms total)
T27F0 000:473 JLINK_WriteReg(R10, 0x00000000)  returns 0x00 (0000ms, 0240ms total)
T27F0 000:473 JLINK_WriteReg(R11, 0x00000000)  returns 0x00 (0000ms, 0240ms total)
T27F0 000:473 JLINK_WriteReg(R12, 0x00000000)  returns 0x00 (0000ms, 0240ms total)
T27F0 000:473 JLINK_WriteReg(R13 (SP), 0x20000800)  returns 0x00 (0000ms, 0240ms total)
T27F0 000:473 JLINK_WriteReg(R14, 0x20000001)  returns 0x00 (0000ms, 0240ms total)
T27F0 000:473 JLINK_WriteReg(R15 (PC), 0x200000B6)  returns 0x00 (0000ms, 0240ms total)
T27F0 000:473 JLINK_WriteReg(XPSR, 0x01000000)  returns 0x00 (0000ms, 0240ms total)
T27F0 000:473 JLINK_WriteReg(MSP, 0x20000800)  returns 0x00 (0000ms, 0240ms total)
T27F0 000:473 JLINK_WriteReg(PSP, 0x20000800)  returns 0x00 (0000ms, 0240ms total)
T27F0 000:473 JLINK_WriteReg(CFBP, 0x00000000)  returns 0x00 (0000ms, 0240ms total)
T27F0 000:473 JLINK_SetBPEx(Addr = 0x20000000, Type = 0xFFFFFFF2)  returns 0x00000009 (0000ms, 0240ms total)
T27F0 000:473 JLINK_Go() (0002ms, 0242ms total)
T27F0 000:475 JLINK_IsHalted()  returns FALSE (0001ms, 0243ms total)
T27F0 000:482 JLINK_IsHalted()  returns FALSE (0000ms, 0242ms total)
T27F0 000:483 JLINK_IsHalted()  returns FALSE (0000ms, 0242ms total)
T27F0 000:484 JLINK_IsHalted()  returns FALSE (0000ms, 0242ms total)
T27F0 000:485 JLINK_IsHalted()  returns FALSE (0000ms, 0242ms total)
T27F0 000:486 JLINK_IsHalted()  returns FALSE (0000ms, 0242ms total)
T27F0 000:487 JLINK_IsHalted()  returns FALSE (0000ms, 0242ms total)
T27F0 000:488 JLINK_IsHalted()  returns FALSE (0000ms, 0242ms total)
T27F0 000:493 JLINK_IsHalted()  returns FALSE (0000ms, 0242ms total)
T27F0 000:494 JLINK_IsHalted()  returns FALSE (0000ms, 0242ms total)
T27F0 000:495 JLINK_IsHalted()  returns FALSE (0000ms, 0242ms total)
T27F0 000:496 JLINK_IsHalted()  returns FALSE (0000ms, 0242ms total)
T27F0 000:497 JLINK_IsHalted() -- CPU_ReadMem(2 bytes @ 0x20000000)  returns TRUE (0004ms, 0246ms total)
T27F0 000:501 JLINK_ReadReg(R15 (PC))  returns 0x20000000 (0000ms, 0242ms total)
T27F0 000:501 JLINK_ClrBPEx(BPHandle = 0x00000009)  returns 0x00 (0000ms, 0242ms total)
T27F0 000:501 JLINK_ReadReg(R0)  returns 0x00000000 (0000ms, 0242ms total)
T27F0 000:501 JLINK_WriteReg(R0, 0x08002000)  returns 0x00 (0000ms, 0242ms total)
T27F0 000:501 JLINK_WriteReg(R1, 0x00000800)  returns 0x00 (0000ms, 0242ms total)
T27F0 000:501 JLINK_WriteReg(R2, 0x000000FF)  returns 0x00 (0000ms, 0242ms total)
T27F0 000:501 JLINK_WriteReg(R3, 0x00000000)  returns 0x00 (0000ms, 0242ms total)
T27F0 000:501 JLINK_WriteReg(R4, 0x00000000)  returns 0x00 (0000ms, 0242ms total)
T27F0 000:501 JLINK_WriteReg(R5, 0x00000000)  returns 0x00 (0000ms, 0242ms total)
T27F0 000:501 JLINK_WriteReg(R6, 0x00000000)  returns 0x00 (0000ms, 0242ms total)
T27F0 000:501 JLINK_WriteReg(R7, 0x00000000)  returns 0x00 (0000ms, 0242ms total)
T27F0 000:501 JLINK_WriteReg(R8, 0x00000000)  returns 0x00 (0000ms, 0242ms total)
T27F0 000:501 JLINK_WriteReg(R9, 0x20000160)  returns 0x00 (0000ms, 0242ms total)
T27F0 000:501 JLINK_WriteReg(R10, 0x00000000)  returns 0x00 (0000ms, 0242ms total)
T27F0 000:501 JLINK_WriteReg(R11, 0x00000000)  returns 0x00 (0000ms, 0242ms total)
T27F0 000:501 JLINK_WriteReg(R12, 0x00000000)  returns 0x00 (0000ms, 0242ms total)
T27F0 000:501 JLINK_WriteReg(R13 (SP), 0x20000800)  returns 0x00 (0000ms, 0242ms total)
T27F0 000:501 JLINK_WriteReg(R14, 0x20000001)  returns 0x00 (0000ms, 0242ms total)
T27F0 000:502 JLINK_WriteReg(R15 (PC), 0x20000020)  returns 0x00 (0000ms, 0242ms total)
T27F0 000:502 JLINK_WriteReg(XPSR, 0x01000000)  returns 0x00 (0000ms, 0242ms total)
T27F0 000:502 JLINK_WriteReg(MSP, 0x20000800)  returns 0x00 (0000ms, 0242ms total)
T27F0 000:502 JLINK_WriteReg(PSP, 0x20000800)  returns 0x00 (0000ms, 0242ms total)
T27F0 000:502 JLINK_WriteReg(CFBP, 0x00000000)  returns 0x00 (0000ms, 0242ms total)
T27F0 000:502 JLINK_SetBPEx(Addr = 0x20000000, Type = 0xFFFFFFF2)  returns 0x0000000A (0000ms, 0242ms total)
T27F0 000:502 JLINK_Go() (0002ms, 0244ms total)
T27F0 000:504 JLINK_IsHalted() -- CPU_ReadMem(2 bytes @ 0x20000000)  returns TRUE (0004ms, 0248ms total)
T27F0 000:508 JLINK_ReadReg(R15 (PC))  returns 0x20000000 (0000ms, 0244ms total)
T27F0 000:508 JLINK_ClrBPEx(BPHandle = 0x0000000A)  returns 0x00 (0000ms, 0244ms total)
T27F0 000:508 JLINK_ReadReg(R0)  returns 0x00000001 (0000ms, 0244ms total)
T27F0 000:508 JLINK_WriteReg(R0, 0x08002000)  returns 0x00 (0000ms, 0244ms total)
T27F0 000:508 JLINK_WriteReg(R1, 0x00000800)  returns 0x00 (0000ms, 0244ms total)
T27F0 000:508 JLINK_WriteReg(R2, 0x000000FF)  returns 0x00 (0000ms, 0244ms total)
T27F0 000:508 JLINK_WriteReg(R3, 0x00000000)  returns 0x00 (0000ms, 0244ms total)
T27F0 000:508 JLINK_WriteReg(R4, 0x00000000)  returns 0x00 (0000ms, 0244ms total)
T27F0 000:508 JLINK_WriteReg(R5, 0x00000000)  returns 0x00 (0000ms, 0244ms total)
T27F0 000:508 JLINK_WriteReg(R6, 0x00000000)  returns 0x00 (0000ms, 0244ms total)
T27F0 000:508 JLINK_WriteReg(R7, 0x00000000)  returns 0x00 (0000ms, 0244ms total)
T27F0 000:508 JLINK_WriteReg(R8, 0x00000000)  returns 0x00 (0000ms, 0244ms total)
T27F0 000:508 JLINK_WriteReg(R9, 0x20000160)  returns 0x00 (0000ms, 0244ms total)
T27F0 000:508 JLINK_WriteReg(R10, 0x00000000)  returns 0x00 (0000ms, 0244ms total)
T27F0 000:508 JLINK_WriteReg(R11, 0x00000000)  returns 0x00 (0000ms, 0244ms total)
T27F0 000:508 JLINK_WriteReg(R12, 0x00000000)  returns 0x00 (0000ms, 0244ms total)
T27F0 000:508 JLINK_WriteReg(R13 (SP), 0x20000800)  returns 0x00 (0000ms, 0244ms total)
T27F0 000:508 JLINK_WriteReg(R14, 0x20000001)  returns 0x00 (0000ms, 0244ms total)
T27F0 000:508 JLINK_WriteReg(R15 (PC), 0x200000B6)  returns 0x00 (0000ms, 0244ms total)
T27F0 000:508 JLINK_WriteReg(XPSR, 0x01000000)  returns 0x00 (0000ms, 0244ms total)
T27F0 000:508 JLINK_WriteReg(MSP, 0x20000800)  returns 0x00 (0000ms, 0244ms total)
T27F0 000:508 JLINK_WriteReg(PSP, 0x20000800)  returns 0x00 (0000ms, 0244ms total)
T27F0 000:508 JLINK_WriteReg(CFBP, 0x00000000)  returns 0x00 (0000ms, 0244ms total)
T27F0 000:508 JLINK_SetBPEx(Addr = 0x20000000, Type = 0xFFFFFFF2)  returns 0x0000000B (0000ms, 0244ms total)
T27F0 000:508 JLINK_Go() (0002ms, 0246ms total)
T27F0 000:510 JLINK_IsHalted()  returns FALSE (0001ms, 0247ms total)
T27F0 000:512 JLINK_IsHalted()  returns FALSE (0000ms, 0246ms total)
T27F0 000:513 JLINK_IsHalted()  returns FALSE (0000ms, 0246ms total)
T27F0 000:514 JLINK_IsHalted()  returns FALSE (0000ms, 0246ms total)
T27F0 000:515 JLINK_IsHalted()  returns FALSE (0000ms, 0246ms total)
T27F0 000:516 JLINK_IsHalted()  returns FALSE (0000ms, 0246ms total)
T27F0 000:517 JLINK_IsHalted()  returns FALSE (0000ms, 0246ms total)
T27F0 000:522 JLINK_IsHalted()  returns FALSE (0000ms, 0246ms total)
T27F0 000:523 JLINK_IsHalted()  returns FALSE (0000ms, 0246ms total)
T27F0 000:524 JLINK_IsHalted()  returns FALSE (0000ms, 0246ms total)
T27F0 000:525 JLINK_IsHalted()  returns FALSE (0000ms, 0246ms total)
T27F0 000:526 JLINK_IsHalted()  returns FALSE (0000ms, 0246ms total)
T27F0 000:527 JLINK_IsHalted()  returns FALSE (0000ms, 0246ms total)
T27F0 000:528 JLINK_IsHalted()  returns FALSE (0000ms, 0246ms total)
T27F0 000:529 JLINK_IsHalted()  returns FALSE (0000ms, 0246ms total)
T27F0 000:530 JLINK_IsHalted()  returns FALSE (0000ms, 0246ms total)
T27F0 000:531 JLINK_IsHalted()  returns FALSE (0000ms, 0246ms total)
T27F0 000:532 JLINK_IsHalted()  returns FALSE (0000ms, 0246ms total)
T27F0 000:533 JLINK_IsHalted() -- CPU_ReadMem(2 bytes @ 0x20000000)  returns TRUE (0003ms, 0249ms total)
T27F0 000:536 JLINK_ReadReg(R15 (PC))  returns 0x20000000 (0000ms, 0246ms total)
T27F0 000:536 JLINK_ClrBPEx(BPHandle = 0x0000000B)  returns 0x00 (0000ms, 0246ms total)
T27F0 000:536 JLINK_ReadReg(R0)  returns 0x00000000 (0000ms, 0246ms total)
T27F0 000:537 JLINK_WriteReg(R0, 0x00000001)  returns 0x00 (0000ms, 0246ms total)
T27F0 000:537 JLINK_WriteReg(R1, 0x00000800)  returns 0x00 (0000ms, 0246ms total)
T27F0 000:537 JLINK_WriteReg(R2, 0x000000FF)  returns 0x00 (0000ms, 0246ms total)
T27F0 000:537 JLINK_WriteReg(R3, 0x00000000)  returns 0x00 (0000ms, 0246ms total)
T27F0 000:537 JLINK_WriteReg(R4, 0x00000000)  returns 0x00 (0000ms, 0246ms total)
T27F0 000:537 JLINK_WriteReg(R5, 0x00000000)  returns 0x00 (0000ms, 0246ms total)
T27F0 000:537 JLINK_WriteReg(R6, 0x00000000)  returns 0x00 (0000ms, 0246ms total)
T27F0 000:537 JLINK_WriteReg(R7, 0x00000000)  returns 0x00 (0000ms, 0246ms total)
T27F0 000:537 JLINK_WriteReg(R8, 0x00000000)  returns 0x00 (0000ms, 0246ms total)
T27F0 000:537 JLINK_WriteReg(R9, 0x20000160)  returns 0x00 (0000ms, 0246ms total)
T27F0 000:537 JLINK_WriteReg(R10, 0x00000000)  returns 0x00 (0000ms, 0246ms total)
T27F0 000:537 JLINK_WriteReg(R11, 0x00000000)  returns 0x00 (0000ms, 0246ms total)
T27F0 000:537 JLINK_WriteReg(R12, 0x00000000)  returns 0x00 (0000ms, 0246ms total)
T27F0 000:537 JLINK_WriteReg(R13 (SP), 0x20000800)  returns 0x00 (0000ms, 0246ms total)
T27F0 000:537 JLINK_WriteReg(R14, 0x20000001)  returns 0x00 (0000ms, 0246ms total)
T27F0 000:537 JLINK_WriteReg(R15 (PC), 0x2000006A)  returns 0x00 (0000ms, 0246ms total)
T27F0 000:537 JLINK_WriteReg(XPSR, 0x01000000)  returns 0x00 (0000ms, 0246ms total)
T27F0 000:537 JLINK_WriteReg(MSP, 0x20000800)  returns 0x00 (0000ms, 0246ms total)
T27F0 000:537 JLINK_WriteReg(PSP, 0x20000800)  returns 0x00 (0000ms, 0246ms total)
T27F0 000:537 JLINK_WriteReg(CFBP, 0x00000000)  returns 0x00 (0000ms, 0246ms total)
T27F0 000:537 JLINK_SetBPEx(Addr = 0x20000000, Type = 0xFFFFFFF2)  returns 0x0000000C (0000ms, 0246ms total)
T27F0 000:537 JLINK_Go() (0003ms, 0249ms total)
T27F0 000:540 JLINK_IsHalted() -- CPU_ReadMem(2 bytes @ 0x20000000)  returns TRUE (0004ms, 0253ms total)
T27F0 000:544 JLINK_ReadReg(R15 (PC))  returns 0x20000000 (0000ms, 0249ms total)
T27F0 000:544 JLINK_ClrBPEx(BPHandle = 0x0000000C)  returns 0x00 (0000ms, 0249ms total)
T27F0 000:544 JLINK_ReadReg(R0)  returns 0x00000000 (0000ms, 0249ms total)
T27F0 000:605 JLINK_WriteMem(0x20000000, 0x0164 Bytes, ...) -- Data:  00 BE 0A E0 0D 78 2D 06 68 40 08 24 40 00 00 D3 ... -- CPU_WriteMem(356 bytes @ 0x20000000)  returns 0x164 (0004ms, 0253ms total)
T27F0 000:609 JLINK_WriteReg(R0, 0x08000000)  returns 0x00 (0000ms, 0253ms total)
T27F0 000:609 JLINK_WriteReg(R1, 0x007A1200)  returns 0x00 (0000ms, 0253ms total)
T27F0 000:609 JLINK_WriteReg(R2, 0x00000002)  returns 0x00 (0000ms, 0253ms total)
T27F0 000:609 JLINK_WriteReg(R3, 0x00000000)  returns 0x00 (0000ms, 0253ms total)
T27F0 000:609 JLINK_WriteReg(R4, 0x00000000)  returns 0x00 (0000ms, 0253ms total)
T27F0 000:609 JLINK_WriteReg(R5, 0x00000000)  returns 0x00 (0000ms, 0253ms total)
T27F0 000:609 JLINK_WriteReg(R6, 0x00000000)  returns 0x00 (0000ms, 0253ms total)
T27F0 000:609 JLINK_WriteReg(R7, 0x00000000)  returns 0x00 (0000ms, 0253ms total)
T27F0 000:609 JLINK_WriteReg(R8, 0x00000000)  returns 0x00 (0000ms, 0253ms total)
T27F0 000:609 JLINK_WriteReg(R9, 0x20000160)  returns 0x00 (0000ms, 0253ms total)
T27F0 000:609 JLINK_WriteReg(R10, 0x00000000)  returns 0x00 (0000ms, 0253ms total)
T27F0 000:609 JLINK_WriteReg(R11, 0x00000000)  returns 0x00 (0000ms, 0253ms total)
T27F0 000:609 JLINK_WriteReg(R12, 0x00000000)  returns 0x00 (0000ms, 0253ms total)
T27F0 000:609 JLINK_WriteReg(R13 (SP), 0x20000800)  returns 0x00 (0000ms, 0253ms total)
T27F0 000:609 JLINK_WriteReg(R14, 0x20000001)  returns 0x00 (0000ms, 0253ms total)
T27F0 000:609 JLINK_WriteReg(R15 (PC), 0x20000038)  returns 0x00 (0000ms, 0253ms total)
T27F0 000:609 JLINK_WriteReg(XPSR, 0x01000000)  returns 0x00 (0000ms, 0253ms total)
T27F0 000:609 JLINK_WriteReg(MSP, 0x20000800)  returns 0x00 (0001ms, 0254ms total)
T27F0 000:610 JLINK_WriteReg(PSP, 0x20000800)  returns 0x00 (0000ms, 0254ms total)
T27F0 000:610 JLINK_WriteReg(CFBP, 0x00000000)  returns 0x00 (0000ms, 0254ms total)
T27F0 000:610 JLINK_SetBPEx(Addr = 0x20000000, Type = 0xFFFFFFF2) -- CPU_ReadMem(2 bytes @ 0x20000000)  returns 0x0000000D (0000ms, 0254ms total)
T27F0 000:610 JLINK_Go() -- CPU_WriteMem(2 bytes @ 0x20000000) (0003ms, 0257ms total)
T27F0 000:613 JLINK_IsHalted() -- CPU_ReadMem(2 bytes @ 0x20000000)  returns TRUE (0004ms, 0261ms total)
T27F0 000:617 JLINK_ReadReg(R15 (PC))  returns 0x20000000 (0000ms, 0257ms total)
T27F0 000:617 JLINK_ClrBPEx(BPHandle = 0x0000000D)  returns 0x00 (0000ms, 0257ms total)
T27F0 000:617 JLINK_ReadReg(R0)  returns 0x00000000 (0000ms, 0257ms total)
T27F0 000:618 JLINK_WriteMem(0x20000164, 0x0400 Bytes, ...) -- Data:  20 11 00 20 F1 0B 00 08 25 03 00 08 27 03 00 08 ... -- CPU_WriteMem(1024 bytes @ 0x20000164)  returns 0x400 (0006ms, 0263ms total)
T27F0 000:624 JLINK_WriteReg(R0, 0x08000000)  returns 0x00 (0000ms, 0263ms total)
T27F0 000:624 JLINK_WriteReg(R1, 0x00000400)  returns 0x00 (0000ms, 0263ms total)
T27F0 000:624 JLINK_WriteReg(R2, 0x20000164)  returns 0x00 (0000ms, 0263ms total)
T27F0 000:624 JLINK_WriteReg(R3, 0x00000000)  returns 0x00 (0000ms, 0263ms total)
T27F0 000:624 JLINK_WriteReg(R4, 0x00000000)  returns 0x00 (0000ms, 0263ms total)
T27F0 000:624 JLINK_WriteReg(R5, 0x00000000)  returns 0x00 (0000ms, 0263ms total)
T27F0 000:624 JLINK_WriteReg(R6, 0x00000000)  returns 0x00 (0000ms, 0263ms total)
T27F0 000:624 JLINK_WriteReg(R7, 0x00000000)  returns 0x00 (0000ms, 0263ms total)
T27F0 000:624 JLINK_WriteReg(R8, 0x00000000)  returns 0x00 (0000ms, 0263ms total)
T27F0 000:624 JLINK_WriteReg(R9, 0x20000160)  returns 0x00 (0000ms, 0263ms total)
T27F0 000:624 JLINK_WriteReg(R10, 0x00000000)  returns 0x00 (0000ms, 0263ms total)
T27F0 000:625 JLINK_WriteReg(R11, 0x00000000)  returns 0x00 (0000ms, 0263ms total)
T27F0 000:625 JLINK_WriteReg(R12, 0x00000000)  returns 0x00 (0000ms, 0263ms total)
T27F0 000:625 JLINK_WriteReg(R13 (SP), 0x20000800)  returns 0x00 (0000ms, 0263ms total)
T27F0 000:625 JLINK_WriteReg(R14, 0x20000001)  returns 0x00 (0000ms, 0263ms total)
T27F0 000:625 JLINK_WriteReg(R15 (PC), 0x200000F4)  returns 0x00 (0000ms, 0263ms total)
T27F0 000:625 JLINK_WriteReg(XPSR, 0x01000000)  returns 0x00 (0000ms, 0263ms total)
T27F0 000:625 JLINK_WriteReg(MSP, 0x20000800)  returns 0x00 (0000ms, 0263ms total)
T27F0 000:625 JLINK_WriteReg(PSP, 0x20000800)  returns 0x00 (0000ms, 0263ms total)
T27F0 000:625 JLINK_WriteReg(CFBP, 0x00000000)  returns 0x00 (0000ms, 0263ms total)
T27F0 000:625 JLINK_SetBPEx(Addr = 0x20000000, Type = 0xFFFFFFF2)  returns 0x0000000E (0000ms, 0263ms total)
T27F0 000:625 JLINK_Go() (0002ms, 0265ms total)
T27F0 000:627 JLINK_IsHalted()  returns FALSE (0001ms, 0266ms total)
T27F0 000:640 JLINK_IsHalted()  returns FALSE (0000ms, 0265ms total)
T27F0 000:641 JLINK_IsHalted()  returns FALSE (0000ms, 0265ms total)
T27F0 000:642 JLINK_IsHalted()  returns FALSE (0000ms, 0265ms total)
T27F0 000:643 JLINK_IsHalted()  returns FALSE (0000ms, 0265ms total)
T27F0 000:644 JLINK_IsHalted()  returns FALSE (0000ms, 0265ms total)
T27F0 000:649 JLINK_IsHalted()  returns FALSE (0000ms, 0265ms total)
T27F0 000:650 JLINK_IsHalted()  returns FALSE (0000ms, 0265ms total)
T27F0 000:651 JLINK_IsHalted()  returns FALSE (0000ms, 0265ms total)
T27F0 000:652 JLINK_IsHalted()  returns FALSE (0000ms, 0265ms total)
T27F0 000:653 JLINK_IsHalted()  returns FALSE (0000ms, 0265ms total)
T27F0 000:654 JLINK_IsHalted()  returns FALSE (0000ms, 0265ms total)
T27F0 000:655 JLINK_IsHalted()  returns FALSE (0000ms, 0265ms total)
T27F0 000:656 JLINK_IsHalted()  returns FALSE (0000ms, 0265ms total)
T27F0 000:657 JLINK_IsHalted()  returns FALSE (0000ms, 0265ms total)
T27F0 000:658 JLINK_IsHalted() -- CPU_ReadMem(2 bytes @ 0x20000000)  returns TRUE (0004ms, 0269ms total)
T27F0 000:662 JLINK_ReadReg(R15 (PC))  returns 0x20000000 (0000ms, 0265ms total)
T27F0 000:662 JLINK_ClrBPEx(BPHandle = 0x0000000E)  returns 0x00 (0000ms, 0265ms total)
T27F0 000:662 JLINK_ReadReg(R0)  returns 0x00000000 (0000ms, 0265ms total)
T27F0 000:662 JLINK_WriteMem(0x20000164, 0x0400 Bytes, ...) -- Data:  02 00 48 60 00 BF 3C 48 40 68 00 F0 0C 00 08 28 ... -- CPU_WriteMem(1024 bytes @ 0x20000164)  returns 0x400 (0007ms, 0272ms total)
T27F0 000:669 JLINK_WriteReg(R0, 0x08000400)  returns 0x00 (0000ms, 0272ms total)
T27F0 000:669 JLINK_WriteReg(R1, 0x00000400)  returns 0x00 (0000ms, 0272ms total)
T27F0 000:669 JLINK_WriteReg(R2, 0x20000164)  returns 0x00 (0000ms, 0272ms total)
T27F0 000:669 JLINK_WriteReg(R3, 0x00000000)  returns 0x00 (0000ms, 0272ms total)
T27F0 000:669 JLINK_WriteReg(R4, 0x00000000)  returns 0x00 (0000ms, 0272ms total)
T27F0 000:669 JLINK_WriteReg(R5, 0x00000000)  returns 0x00 (0000ms, 0272ms total)
T27F0 000:669 JLINK_WriteReg(R6, 0x00000000)  returns 0x00 (0000ms, 0272ms total)
T27F0 000:669 JLINK_WriteReg(R7, 0x00000000)  returns 0x00 (0000ms, 0272ms total)
T27F0 000:669 JLINK_WriteReg(R8, 0x00000000)  returns 0x00 (0000ms, 0272ms total)
T27F0 000:669 JLINK_WriteReg(R9, 0x20000160)  returns 0x00 (0000ms, 0272ms total)
T27F0 000:669 JLINK_WriteReg(R10, 0x00000000)  returns 0x00 (0000ms, 0272ms total)
T27F0 000:669 JLINK_WriteReg(R11, 0x00000000)  returns 0x00 (0000ms, 0272ms total)
T27F0 000:669 JLINK_WriteReg(R12, 0x00000000)  returns 0x00 (0000ms, 0272ms total)
T27F0 000:669 JLINK_WriteReg(R13 (SP), 0x20000800)  returns 0x00 (0000ms, 0272ms total)
T27F0 000:669 JLINK_WriteReg(R14, 0x20000001)  returns 0x00 (0000ms, 0272ms total)
T27F0 000:669 JLINK_WriteReg(R15 (PC), 0x200000F4)  returns 0x00 (0000ms, 0272ms total)
T27F0 000:669 JLINK_WriteReg(XPSR, 0x01000000)  returns 0x00 (0000ms, 0272ms total)
T27F0 000:669 JLINK_WriteReg(MSP, 0x20000800)  returns 0x00 (0000ms, 0272ms total)
T27F0 000:669 JLINK_WriteReg(PSP, 0x20000800)  returns 0x00 (0000ms, 0272ms total)
T27F0 000:669 JLINK_WriteReg(CFBP, 0x00000000)  returns 0x00 (0000ms, 0272ms total)
T27F0 000:669 JLINK_SetBPEx(Addr = 0x20000000, Type = 0xFFFFFFF2)  returns 0x0000000F (0000ms, 0272ms total)
T27F0 000:669 JLINK_Go() (0002ms, 0274ms total)
T27F0 000:671 JLINK_IsHalted()  returns FALSE (0001ms, 0275ms total)
T27F0 000:674 JLINK_IsHalted()  returns FALSE (0000ms, 0274ms total)
T27F0 000:675 JLINK_IsHalted()  returns FALSE (0001ms, 0275ms total)
T27F0 000:682 JLINK_IsHalted()  returns FALSE (0000ms, 0274ms total)
T27F0 000:683 JLINK_IsHalted()  returns FALSE (0000ms, 0274ms total)
T27F0 000:684 JLINK_IsHalted()  returns FALSE (0000ms, 0274ms total)
T27F0 000:685 JLINK_IsHalted()  returns FALSE (0000ms, 0274ms total)
T27F0 000:686 JLINK_IsHalted()  returns FALSE (0000ms, 0274ms total)
T27F0 000:687 JLINK_IsHalted()  returns FALSE (0000ms, 0274ms total)
T27F0 000:688 JLINK_IsHalted()  returns FALSE (0000ms, 0274ms total)
T27F0 000:689 JLINK_IsHalted()  returns FALSE (0000ms, 0274ms total)
T27F0 000:690 JLINK_IsHalted()  returns FALSE (0000ms, 0274ms total)
T27F0 000:691 JLINK_IsHalted()  returns FALSE (0000ms, 0274ms total)
T27F0 000:692 JLINK_IsHalted()  returns FALSE (0000ms, 0274ms total)
T27F0 000:693 JLINK_IsHalted()  returns FALSE (0000ms, 0274ms total)
T27F0 000:694 JLINK_IsHalted()  returns FALSE (0000ms, 0274ms total)
T27F0 000:695 JLINK_IsHalted()  returns FALSE (0001ms, 0275ms total)
T27F0 000:697 JLINK_IsHalted()  returns FALSE (0000ms, 0274ms total)
T27F0 000:698 JLINK_IsHalted()  returns FALSE (0000ms, 0274ms total)
T27F0 000:699 JLINK_IsHalted()  returns FALSE (0000ms, 0274ms total)
T27F0 000:700 JLINK_IsHalted()  returns FALSE (0000ms, 0274ms total)
T27F0 000:701 JLINK_IsHalted()  returns FALSE (0000ms, 0274ms total)
T27F0 000:702 JLINK_IsHalted() -- CPU_ReadMem(2 bytes @ 0x20000000)  returns TRUE (0003ms, 0277ms total)
T27F0 000:705 JLINK_ReadReg(R15 (PC))  returns 0x20000000 (0000ms, 0274ms total)
T27F0 000:705 JLINK_ClrBPEx(BPHandle = 0x0000000F)  returns 0x00 (0000ms, 0274ms total)
T27F0 000:705 JLINK_ReadReg(R0)  returns 0x00000000 (0000ms, 0274ms total)
T27F0 000:706 JLINK_WriteMem(0x20000164, 0x0400 Bytes, ...) -- Data:  51 71 C9 10 49 1C CD B2 3D 46 15 E0 29 46 30 46 ... -- CPU_WriteMem(1024 bytes @ 0x20000164)  returns 0x400 (0007ms, 0281ms total)
T27F0 000:713 JLINK_WriteReg(R0, 0x08000800)  returns 0x00 (0000ms, 0281ms total)
T27F0 000:713 JLINK_WriteReg(R1, 0x00000400)  returns 0x00 (0000ms, 0281ms total)
T27F0 000:713 JLINK_WriteReg(R2, 0x20000164)  returns 0x00 (0000ms, 0281ms total)
T27F0 000:713 JLINK_WriteReg(R3, 0x00000000)  returns 0x00 (0000ms, 0281ms total)
T27F0 000:713 JLINK_WriteReg(R4, 0x00000000)  returns 0x00 (0000ms, 0281ms total)
T27F0 000:713 JLINK_WriteReg(R5, 0x00000000)  returns 0x00 (0000ms, 0281ms total)
T27F0 000:713 JLINK_WriteReg(R6, 0x00000000)  returns 0x00 (0000ms, 0281ms total)
T27F0 000:713 JLINK_WriteReg(R7, 0x00000000)  returns 0x00 (0000ms, 0281ms total)
T27F0 000:713 JLINK_WriteReg(R8, 0x00000000)  returns 0x00 (0000ms, 0281ms total)
T27F0 000:713 JLINK_WriteReg(R9, 0x20000160)  returns 0x00 (0000ms, 0281ms total)
T27F0 000:713 JLINK_WriteReg(R10, 0x00000000)  returns 0x00 (0000ms, 0281ms total)
T27F0 000:713 JLINK_WriteReg(R11, 0x00000000)  returns 0x00 (0000ms, 0281ms total)
T27F0 000:713 JLINK_WriteReg(R12, 0x00000000)  returns 0x00 (0000ms, 0281ms total)
T27F0 000:713 JLINK_WriteReg(R13 (SP), 0x20000800)  returns 0x00 (0000ms, 0281ms total)
T27F0 000:713 JLINK_WriteReg(R14, 0x20000001)  returns 0x00 (0000ms, 0281ms total)
T27F0 000:713 JLINK_WriteReg(R15 (PC), 0x200000F4)  returns 0x00 (0000ms, 0281ms total)
T27F0 000:713 JLINK_WriteReg(XPSR, 0x01000000)  returns 0x00 (0000ms, 0281ms total)
T27F0 000:713 JLINK_WriteReg(MSP, 0x20000800)  returns 0x00 (0000ms, 0281ms total)
T27F0 000:713 JLINK_WriteReg(PSP, 0x20000800)  returns 0x00 (0000ms, 0281ms total)
T27F0 000:713 JLINK_WriteReg(CFBP, 0x00000000)  returns 0x00 (0000ms, 0281ms total)
T27F0 000:713 JLINK_SetBPEx(Addr = 0x20000000, Type = 0xFFFFFFF2)  returns 0x00000010 (0000ms, 0281ms total)
T27F0 000:713 JLINK_Go() (0002ms, 0283ms total)
T27F0 000:715 JLINK_IsHalted()  returns FALSE (0001ms, 0284ms total)
T27F0 000:720 JLINK_IsHalted()  returns FALSE (0000ms, 0283ms total)
T27F0 000:721 JLINK_IsHalted()  returns FALSE (0000ms, 0283ms total)
T27F0 000:722 JLINK_IsHalted()  returns FALSE (0000ms, 0283ms total)
T27F0 000:723 JLINK_IsHalted()  returns FALSE (0000ms, 0283ms total)
T27F0 000:726 JLINK_IsHalted()  returns FALSE (0000ms, 0283ms total)
T27F0 000:727 JLINK_IsHalted()  returns FALSE (0000ms, 0283ms total)
T27F0 000:728 JLINK_IsHalted()  returns FALSE (0000ms, 0283ms total)
T27F0 000:729 JLINK_IsHalted()  returns FALSE (0000ms, 0283ms total)
T27F0 000:730 JLINK_IsHalted()  returns FALSE (0000ms, 0283ms total)
T27F0 000:731 JLINK_IsHalted()  returns FALSE (0000ms, 0283ms total)
T27F0 000:732 JLINK_IsHalted()  returns FALSE (0000ms, 0283ms total)
T27F0 000:733 JLINK_IsHalted()  returns FALSE (0000ms, 0283ms total)
